vds	Id(M2)	sqrt(Id(M2))
Step Information: Vgs=0  (Run: 1/7)
0.000000000000000e+000	0.000000e+000	0.000000e+000
1.000000000000000e-003	5.661585e-012	2.379409e-006
2.000000000000000e-003	1.119165e-011	3.345392e-006
3.000000000000000e-003	1.659069e-011	4.073167e-006
4.000000000000000e-003	2.185926e-011	4.675389e-006
5.000000000000000e-003	2.699801e-011	5.195961e-006
6.000000000000000e-003	3.200764e-011	5.657530e-006
7.000000000000000e-003	3.688896e-011	6.073628e-006
8.000000000000000e-003	4.164283e-011	6.453125e-006
9.000000000000001e-003	4.627020e-011	6.802220e-006
1.000000000000000e-002	5.077211e-011	7.125455e-006
1.100000000000000e-002	5.514967e-011	7.426283e-006
1.200000000000000e-002	5.940409e-011	7.707405e-006
1.300000000000001e-002	6.353666e-011	7.970989e-006
1.400000000000001e-002	6.754876e-011	8.218805e-006
1.500000000000001e-002	7.144185e-011	8.452328e-006
1.600000000000001e-002	7.521750e-011	8.672802e-006
1.700000000000001e-002	7.887736e-011	8.881292e-006
1.800000000000001e-002	8.242316e-011	9.078720e-006
1.900000000000001e-002	8.585675e-011	9.265892e-006
2.000000000000001e-002	8.918006e-011	9.443519e-006
2.100000000000001e-002	9.239508e-011	9.612236e-006
2.200000000000001e-002	9.550392e-011	9.772611e-006
2.300000000000001e-002	9.850878e-011	9.925159e-006
2.400000000000001e-002	1.014119e-010	1.007035e-005
2.500000000000002e-002	1.042156e-010	1.020861e-005
2.600000000000002e-002	1.069224e-010	1.034033e-005
2.700000000000002e-002	1.095346e-010	1.046588e-005
2.800000000000002e-002	1.120549e-010	1.058560e-005
2.900000000000002e-002	1.144858e-010	1.069980e-005
3.000000000000002e-002	1.168299e-010	1.080879e-005
3.100000000000002e-002	1.190900e-010	1.091284e-005
3.200000000000002e-002	1.212687e-010	1.101221e-005
3.300000000000002e-002	1.233687e-010	1.110715e-005
3.400000000000002e-002	1.253929e-010	1.119790e-005
3.500000000000002e-002	1.273439e-010	1.128468e-005
3.600000000000003e-002	1.292245e-010	1.136770e-005
3.700000000000003e-002	1.310374e-010	1.144716e-005
3.800000000000003e-002	1.327854e-010	1.152325e-005
3.900000000000003e-002	1.344710e-010	1.159616e-005
4.000000000000003e-002	1.360970e-010	1.166606e-005
4.100000000000003e-002	1.376659e-010	1.173311e-005
4.200000000000003e-002	1.391804e-010	1.179747e-005
4.300000000000003e-002	1.406428e-010	1.185929e-005
4.400000000000003e-002	1.420557e-010	1.191871e-005
4.500000000000003e-002	1.434214e-010	1.197587e-005
4.600000000000003e-002	1.447422e-010	1.203088e-005
4.700000000000004e-002	1.460203e-010	1.208389e-005
4.800000000000004e-002	1.472579e-010	1.213499e-005
4.900000000000004e-002	1.484571e-010	1.218430e-005
5.000000000000004e-002	1.496199e-010	1.223192e-005
5.100000000000004e-002	1.507482e-010	1.227796e-005
5.200000000000004e-002	1.518439e-010	1.232249e-005
5.300000000000004e-002	1.529086e-010	1.236562e-005
5.400000000000004e-002	1.539441e-010	1.240742e-005
5.500000000000004e-002	1.549521e-010	1.244798e-005
5.600000000000004e-002	1.559340e-010	1.248735e-005
5.700000000000004e-002	1.568913e-010	1.252563e-005
5.800000000000005e-002	1.578254e-010	1.256286e-005
5.900000000000005e-002	1.587376e-010	1.259911e-005
6.000000000000005e-002	1.596292e-010	1.263444e-005
6.100000000000005e-002	1.605013e-010	1.266891e-005
6.200000000000005e-002	1.613550e-010	1.270256e-005
6.300000000000004e-002	1.621916e-010	1.273544e-005
6.400000000000004e-002	1.630118e-010	1.276761e-005
6.500000000000004e-002	1.638167e-010	1.279909e-005
6.600000000000005e-002	1.646072e-010	1.282993e-005
6.700000000000005e-002	1.653842e-010	1.286018e-005
6.800000000000005e-002	1.661483e-010	1.288985e-005
6.900000000000005e-002	1.669004e-010	1.291900e-005
7.000000000000005e-002	1.676413e-010	1.294764e-005
7.100000000000005e-002	1.683715e-010	1.297580e-005
7.200000000000005e-002	1.690917e-010	1.300352e-005
7.300000000000005e-002	1.698024e-010	1.303083e-005
7.400000000000005e-002	1.705044e-010	1.305773e-005
7.500000000000005e-002	1.711980e-010	1.308427e-005
7.600000000000005e-002	1.718838e-010	1.311045e-005
7.700000000000006e-002	1.725623e-010	1.313630e-005
7.800000000000006e-002	1.732338e-010	1.316183e-005
7.900000000000006e-002	1.738989e-010	1.318707e-005
8.000000000000006e-002	1.745579e-010	1.321204e-005
8.100000000000006e-002	1.752112e-010	1.323674e-005
8.200000000000006e-002	1.758591e-010	1.326119e-005
8.300000000000006e-002	1.765020e-010	1.328540e-005
8.400000000000006e-002	1.771401e-010	1.330940e-005
8.500000000000006e-002	1.777739e-010	1.333319e-005
8.600000000000006e-002	1.784035e-010	1.335678e-005
8.700000000000006e-002	1.790292e-010	1.338018e-005
8.800000000000006e-002	1.796513e-010	1.340341e-005
8.900000000000007e-002	1.802700e-010	1.342647e-005
9.000000000000007e-002	1.808855e-010	1.344937e-005
9.100000000000007e-002	1.814981e-010	1.347212e-005
9.200000000000007e-002	1.821079e-010	1.349474e-005
9.300000000000007e-002	1.827151e-010	1.351722e-005
9.400000000000007e-002	1.833200e-010	1.353957e-005
9.500000000000007e-002	1.839226e-010	1.356181e-005
9.600000000000007e-002	1.845231e-010	1.358393e-005
9.700000000000007e-002	1.851217e-010	1.360594e-005
9.800000000000007e-002	1.857186e-010	1.362786e-005
9.900000000000007e-002	1.863138e-010	1.364968e-005
1.000000000000001e-001	1.869076e-010	1.367141e-005
1.010000000000001e-001	1.874999e-010	1.369306e-005
1.020000000000001e-001	1.880910e-010	1.371463e-005
1.030000000000001e-001	1.886809e-010	1.373612e-005
1.040000000000001e-001	1.892698e-010	1.375754e-005
1.050000000000001e-001	1.898578e-010	1.377889e-005
1.060000000000001e-001	1.904449e-010	1.380018e-005
1.070000000000001e-001	1.910312e-010	1.382140e-005
1.080000000000001e-001	1.916169e-010	1.384257e-005
1.090000000000001e-001	1.922019e-010	1.386369e-005
1.100000000000001e-001	1.927865e-010	1.388476e-005
1.110000000000001e-001	1.933707e-010	1.390578e-005
1.120000000000001e-001	1.939544e-010	1.392675e-005
1.130000000000001e-001	1.945379e-010	1.394769e-005
1.140000000000001e-001	1.951212e-010	1.396858e-005
1.150000000000001e-001	1.957043e-010	1.398943e-005
1.160000000000001e-001	1.962873e-010	1.401026e-005
1.170000000000001e-001	1.968702e-010	1.403104e-005
1.180000000000001e-001	1.974532e-010	1.405180e-005
1.190000000000001e-001	1.980362e-010	1.407253e-005
1.200000000000001e-001	1.986193e-010	1.409324e-005
1.210000000000001e-001	1.992026e-010	1.411391e-005
1.220000000000001e-001	1.997860e-010	1.413457e-005
1.230000000000001e-001	2.003698e-010	1.415520e-005
1.240000000000001e-001	2.009538e-010	1.417582e-005
1.250000000000001e-001	2.015381e-010	1.419641e-005
1.260000000000001e-001	2.021228e-010	1.421699e-005
1.270000000000001e-001	2.027080e-010	1.423755e-005
1.280000000000001e-001	2.032935e-010	1.425810e-005
1.290000000000001e-001	2.038796e-010	1.427864e-005
1.300000000000001e-001	2.044661e-010	1.429916e-005
1.310000000000001e-001	2.050532e-010	1.431968e-005
1.320000000000001e-001	2.056409e-010	1.434018e-005
1.330000000000001e-001	2.062292e-010	1.436068e-005
1.340000000000001e-001	2.068181e-010	1.438117e-005
1.350000000000001e-001	2.074076e-010	1.440165e-005
1.360000000000001e-001	2.079979e-010	1.442213e-005
1.370000000000001e-001	2.085889e-010	1.444261e-005
1.380000000000001e-001	2.091806e-010	1.446308e-005
1.390000000000001e-001	2.097730e-010	1.448354e-005
1.400000000000001e-001	2.103663e-010	1.450401e-005
1.410000000000001e-001	2.109604e-010	1.452447e-005
1.420000000000001e-001	2.115552e-010	1.454494e-005
1.430000000000001e-001	2.121510e-010	1.456540e-005
1.440000000000001e-001	2.127476e-010	1.458587e-005
1.450000000000001e-001	2.133451e-010	1.460634e-005
1.460000000000001e-001	2.139435e-010	1.462681e-005
1.470000000000001e-001	2.145429e-010	1.464728e-005
1.480000000000001e-001	2.151432e-010	1.466776e-005
1.490000000000001e-001	2.157444e-010	1.468824e-005
1.500000000000001e-001	2.163466e-010	1.470873e-005
1.510000000000001e-001	2.169499e-010	1.472922e-005
1.520000000000001e-001	2.175541e-010	1.474972e-005
1.530000000000001e-001	2.181594e-010	1.477022e-005
1.540000000000001e-001	2.187657e-010	1.479073e-005
1.550000000000001e-001	2.193730e-010	1.481125e-005
1.560000000000001e-001	2.199815e-010	1.483177e-005
1.570000000000001e-001	2.205910e-010	1.485231e-005
1.580000000000001e-001	2.212017e-010	1.487285e-005
1.590000000000001e-001	2.218134e-010	1.489340e-005
1.600000000000001e-001	2.224263e-010	1.491396e-005
1.610000000000001e-001	2.230403e-010	1.493453e-005
1.620000000000001e-001	2.236554e-010	1.495511e-005
1.630000000000001e-001	2.242718e-010	1.497571e-005
1.640000000000001e-001	2.248893e-010	1.499631e-005
1.650000000000001e-001	2.255079e-010	1.501692e-005
1.660000000000001e-001	2.261278e-010	1.503755e-005
1.670000000000001e-001	2.267489e-010	1.505818e-005
1.680000000000001e-001	2.273712e-010	1.507883e-005
1.690000000000001e-001	2.279948e-010	1.509950e-005
1.700000000000001e-001	2.286195e-010	1.512017e-005
1.710000000000001e-001	2.292456e-010	1.514086e-005
1.720000000000001e-001	2.298729e-010	1.516156e-005
1.730000000000001e-001	2.305014e-010	1.518227e-005
1.740000000000001e-001	2.311313e-010	1.520300e-005
1.750000000000001e-001	2.317624e-010	1.522374e-005
1.760000000000001e-001	2.323948e-010	1.524450e-005
1.770000000000001e-001	2.330285e-010	1.526527e-005
1.780000000000001e-001	2.336636e-010	1.528606e-005
1.790000000000001e-001	2.342999e-010	1.530686e-005
1.800000000000001e-001	2.349377e-010	1.532768e-005
1.810000000000001e-001	2.355767e-010	1.534851e-005
1.820000000000001e-001	2.362171e-010	1.536936e-005
1.830000000000001e-001	2.368588e-010	1.539022e-005
1.840000000000001e-001	2.375020e-010	1.541110e-005
1.850000000000001e-001	2.381464e-010	1.543199e-005
1.860000000000001e-001	2.387923e-010	1.545291e-005
1.870000000000001e-001	2.394396e-010	1.547383e-005
1.880000000000001e-001	2.400882e-010	1.549478e-005
1.890000000000001e-001	2.407383e-010	1.551574e-005
1.900000000000001e-001	2.413897e-010	1.553672e-005
1.910000000000001e-001	2.420426e-010	1.555772e-005
1.920000000000001e-001	2.426969e-010	1.557873e-005
1.930000000000001e-001	2.433527e-010	1.559977e-005
1.940000000000001e-001	2.440099e-010	1.562082e-005
1.950000000000002e-001	2.446685e-010	1.564188e-005
1.960000000000002e-001	2.453286e-010	1.566297e-005
1.970000000000002e-001	2.459901e-010	1.568407e-005
1.980000000000002e-001	2.466531e-010	1.570519e-005
1.990000000000002e-001	2.473176e-010	1.572633e-005
2.000000000000002e-001	2.479836e-010	1.574749e-005
2.010000000000002e-001	2.486510e-010	1.576867e-005
2.020000000000002e-001	2.493199e-010	1.578987e-005
2.030000000000002e-001	2.499904e-010	1.581108e-005
2.040000000000002e-001	2.506623e-010	1.583232e-005
2.050000000000002e-001	2.513358e-010	1.585357e-005
2.060000000000002e-001	2.520107e-010	1.587485e-005
2.070000000000002e-001	2.526872e-010	1.589614e-005
2.080000000000002e-001	2.533652e-010	1.591745e-005
2.090000000000002e-001	2.540448e-010	1.593878e-005
2.100000000000002e-001	2.547259e-010	1.596013e-005
2.110000000000002e-001	2.554085e-010	1.598151e-005
2.120000000000002e-001	2.560927e-010	1.600290e-005
2.130000000000002e-001	2.567785e-010	1.602431e-005
2.140000000000002e-001	2.574658e-010	1.604574e-005
2.150000000000002e-001	2.581547e-010	1.606719e-005
2.160000000000002e-001	2.588451e-010	1.608866e-005
2.170000000000002e-001	2.595372e-010	1.611016e-005
2.180000000000002e-001	2.602308e-010	1.613167e-005
2.190000000000002e-001	2.609261e-010	1.615321e-005
2.200000000000002e-001	2.616229e-010	1.617476e-005
2.210000000000002e-001	2.623213e-010	1.619634e-005
2.220000000000002e-001	2.630214e-010	1.621793e-005
2.230000000000002e-001	2.637230e-010	1.623955e-005
2.240000000000002e-001	2.644263e-010	1.626119e-005
2.250000000000002e-001	2.651312e-010	1.628285e-005
2.260000000000002e-001	2.658377e-010	1.630453e-005
2.270000000000002e-001	2.665459e-010	1.632623e-005
2.280000000000002e-001	2.672557e-010	1.634796e-005
2.290000000000002e-001	2.679671e-010	1.636970e-005
2.300000000000002e-001	2.686802e-010	1.639147e-005
2.310000000000002e-001	2.693950e-010	1.641326e-005
2.320000000000002e-001	2.701114e-010	1.643507e-005
2.330000000000002e-001	2.708295e-010	1.645690e-005
2.340000000000002e-001	2.715493e-010	1.647875e-005
2.350000000000002e-001	2.722707e-010	1.650063e-005
2.360000000000002e-001	2.729939e-010	1.652253e-005
2.370000000000002e-001	2.737187e-010	1.654445e-005
2.380000000000002e-001	2.744452e-010	1.656639e-005
2.390000000000002e-001	2.751734e-010	1.658835e-005
2.400000000000002e-001	2.759033e-010	1.661034e-005
2.410000000000002e-001	2.766350e-010	1.663235e-005
2.420000000000002e-001	2.773683e-010	1.665438e-005
2.430000000000002e-001	2.781034e-010	1.667643e-005
2.440000000000002e-001	2.788401e-010	1.669851e-005
2.450000000000002e-001	2.795787e-010	1.672061e-005
2.460000000000002e-001	2.803189e-010	1.674273e-005
2.470000000000002e-001	2.810609e-010	1.676487e-005
2.480000000000002e-001	2.818046e-010	1.678704e-005
2.490000000000002e-001	2.825501e-010	1.680923e-005
2.500000000000002e-001	2.832974e-010	1.683144e-005
2.510000000000002e-001	2.840464e-010	1.685368e-005
2.520000000000002e-001	2.847971e-010	1.687593e-005
2.530000000000002e-001	2.855497e-010	1.689821e-005
2.540000000000002e-001	2.863040e-010	1.692052e-005
2.550000000000002e-001	2.870601e-010	1.694285e-005
2.560000000000002e-001	2.878179e-010	1.696520e-005
2.570000000000002e-001	2.885776e-010	1.698757e-005
2.580000000000002e-001	2.893391e-010	1.700997e-005
2.590000000000002e-001	2.901023e-010	1.703239e-005
2.600000000000002e-001	2.908674e-010	1.705483e-005
2.610000000000002e-001	2.916342e-010	1.707730e-005
2.620000000000002e-001	2.924029e-010	1.709979e-005
2.630000000000002e-001	2.931734e-010	1.712231e-005
2.640000000000002e-001	2.939458e-010	1.714485e-005
2.650000000000002e-001	2.947199e-010	1.716741e-005
2.660000000000002e-001	2.954959e-010	1.718999e-005
2.670000000000002e-001	2.962738e-010	1.721260e-005
2.680000000000002e-001	2.970534e-010	1.723524e-005
2.690000000000002e-001	2.978350e-010	1.725790e-005
2.700000000000002e-001	2.986183e-010	1.728058e-005
2.710000000000002e-001	2.994036e-010	1.730328e-005
2.720000000000002e-001	3.001907e-010	1.732601e-005
2.730000000000002e-001	3.009796e-010	1.734876e-005
2.740000000000002e-001	3.017705e-010	1.737154e-005
2.750000000000002e-001	3.025632e-010	1.739434e-005
2.760000000000002e-001	3.033578e-010	1.741717e-005
2.770000000000002e-001	3.041543e-010	1.744002e-005
2.780000000000002e-001	3.049527e-010	1.746289e-005
2.790000000000002e-001	3.057530e-010	1.748579e-005
2.800000000000002e-001	3.065551e-010	1.750872e-005
2.810000000000002e-001	3.073592e-010	1.753166e-005
2.820000000000002e-001	3.081652e-010	1.755464e-005
2.830000000000002e-001	3.089732e-010	1.757763e-005
2.840000000000002e-001	3.097830e-010	1.760065e-005
2.850000000000002e-001	3.105948e-010	1.762370e-005
2.860000000000002e-001	3.114085e-010	1.764677e-005
2.870000000000002e-001	3.122241e-010	1.766987e-005
2.880000000000002e-001	3.130417e-010	1.769299e-005
2.890000000000002e-001	3.138612e-010	1.771613e-005
2.900000000000002e-001	3.146828e-010	1.773930e-005
2.910000000000002e-001	3.155062e-010	1.776249e-005
2.920000000000002e-001	3.163316e-010	1.778571e-005
2.930000000000002e-001	3.171590e-010	1.780896e-005
2.940000000000002e-001	3.179883e-010	1.783223e-005
2.950000000000002e-001	3.188196e-010	1.785552e-005
2.960000000000002e-001	3.196529e-010	1.787884e-005
2.970000000000002e-001	3.204882e-010	1.790218e-005
2.980000000000002e-001	3.213255e-010	1.792555e-005
2.990000000000002e-001	3.221648e-010	1.794895e-005
3.000000000000002e-001	3.230061e-010	1.797237e-005
3.010000000000002e-001	3.238494e-010	1.799582e-005
3.020000000000002e-001	3.246947e-010	1.801929e-005
3.030000000000002e-001	3.255420e-010	1.804278e-005
3.040000000000002e-001	3.263913e-010	1.806630e-005
3.050000000000002e-001	3.272427e-010	1.808985e-005
3.060000000000002e-001	3.280961e-010	1.811342e-005
3.070000000000002e-001	3.289515e-010	1.813702e-005
3.080000000000002e-001	3.298090e-010	1.816064e-005
3.090000000000002e-001	3.306685e-010	1.818429e-005
3.100000000000002e-001	3.315301e-010	1.820797e-005
3.110000000000002e-001	3.323938e-010	1.823167e-005
3.120000000000002e-001	3.332594e-010	1.825540e-005
3.130000000000002e-001	3.341272e-010	1.827915e-005
3.140000000000002e-001	3.349970e-010	1.830292e-005
3.150000000000002e-001	3.358689e-010	1.832673e-005
3.160000000000002e-001	3.367429e-010	1.835056e-005
3.170000000000002e-001	3.376190e-010	1.837441e-005
3.180000000000002e-001	3.384972e-010	1.839829e-005
3.190000000000002e-001	3.393775e-010	1.842220e-005
3.200000000000002e-001	3.402598e-010	1.844613e-005
3.210000000000002e-001	3.411443e-010	1.847009e-005
3.220000000000002e-001	3.420309e-010	1.849408e-005
3.230000000000002e-001	3.429197e-010	1.851809e-005
3.240000000000002e-001	3.438105e-010	1.854213e-005
3.250000000000002e-001	3.447035e-010	1.856619e-005
3.260000000000002e-001	3.455986e-010	1.859028e-005
3.270000000000002e-001	3.464958e-010	1.861440e-005
3.280000000000002e-001	3.473952e-010	1.863854e-005
3.290000000000002e-001	3.482967e-010	1.866271e-005
3.300000000000002e-001	3.492004e-010	1.868691e-005
3.310000000000002e-001	3.501063e-010	1.871113e-005
3.320000000000002e-001	3.510143e-010	1.873537e-005
3.330000000000002e-001	3.519245e-010	1.875965e-005
3.340000000000002e-001	3.528368e-010	1.878395e-005
3.350000000000002e-001	3.537514e-010	1.880828e-005
3.360000000000002e-001	3.546681e-010	1.883263e-005
3.370000000000002e-001	3.555870e-010	1.885701e-005
3.380000000000002e-001	3.565081e-010	1.888142e-005
3.390000000000003e-001	3.574314e-010	1.890586e-005
3.400000000000003e-001	3.583569e-010	1.893032e-005
3.410000000000003e-001	3.592847e-010	1.895481e-005
3.420000000000003e-001	3.602146e-010	1.897932e-005
3.430000000000003e-001	3.611468e-010	1.900386e-005
3.440000000000003e-001	3.620812e-010	1.902843e-005
3.450000000000003e-001	3.630178e-010	1.905303e-005
3.460000000000003e-001	3.639567e-010	1.907765e-005
3.470000000000003e-001	3.648978e-010	1.910230e-005
3.480000000000003e-001	3.658412e-010	1.912697e-005
3.490000000000003e-001	3.667868e-010	1.915168e-005
3.500000000000003e-001	3.677346e-010	1.917641e-005
3.510000000000003e-001	3.686848e-010	1.920117e-005
3.520000000000003e-001	3.696372e-010	1.922595e-005
3.530000000000003e-001	3.705919e-010	1.925076e-005
3.540000000000003e-001	3.715489e-010	1.927560e-005
3.550000000000003e-001	3.725081e-010	1.930047e-005
3.560000000000003e-001	3.734697e-010	1.932536e-005
3.570000000000003e-001	3.744335e-010	1.935028e-005
3.580000000000003e-001	3.753997e-010	1.937523e-005
3.590000000000003e-001	3.763681e-010	1.940021e-005
3.600000000000003e-001	3.773389e-010	1.942521e-005
3.610000000000003e-001	3.783120e-010	1.945024e-005
3.620000000000003e-001	3.792874e-010	1.947530e-005
3.630000000000003e-001	3.802652e-010	1.950039e-005
3.640000000000003e-001	3.812452e-010	1.952550e-005
3.650000000000003e-001	3.822277e-010	1.955064e-005
3.660000000000003e-001	3.832124e-010	1.957581e-005
3.670000000000003e-001	3.841995e-010	1.960101e-005
3.680000000000003e-001	3.851890e-010	1.962623e-005
3.690000000000003e-001	3.861809e-010	1.965149e-005
3.700000000000003e-001	3.871751e-010	1.967677e-005
3.710000000000003e-001	3.881717e-010	1.970207e-005
3.720000000000003e-001	3.891706e-010	1.972741e-005
3.730000000000003e-001	3.901720e-010	1.975277e-005
3.740000000000003e-001	3.911757e-010	1.977816e-005
3.750000000000003e-001	3.921819e-010	1.980358e-005
3.760000000000003e-001	3.931904e-010	1.982903e-005
3.770000000000003e-001	3.942014e-010	1.985451e-005
3.780000000000003e-001	3.952147e-010	1.988001e-005
3.790000000000003e-001	3.962305e-010	1.990554e-005
3.800000000000003e-001	3.972488e-010	1.993110e-005
3.810000000000003e-001	3.982694e-010	1.995669e-005
3.820000000000003e-001	3.992925e-010	1.998230e-005
