vgs	Id(M2)	sqrt(Id(M2))
Step Information: Vds=300m  (Run: 1/6)
0.000000000000000e+000	3.230061e-010	1.797237e-005
1.000000000000000e-003	3.329733e-010	1.824756e-005
2.000000000000000e-003	3.432472e-010	1.852693e-005
3.000000000000000e-003	3.538370e-010	1.881056e-005
4.000000000000000e-003	3.647525e-010	1.909849e-005
5.000000000000000e-003	3.760035e-010	1.939081e-005
6.000000000000000e-003	3.876004e-010	1.968757e-005
7.000000000000000e-003	3.995537e-010	1.998884e-005
8.000000000000000e-003	4.118743e-010	2.029469e-005
9.000000000000001e-003	4.245734e-010	2.060518e-005
1.000000000000000e-002	4.376625e-010	2.092039e-005
1.100000000000000e-002	4.511536e-010	2.124038e-005
1.200000000000000e-002	4.650589e-010	2.156522e-005
1.300000000000001e-002	4.793910e-010	2.189500e-005
1.400000000000001e-002	4.941629e-010	2.222978e-005
1.500000000000001e-002	5.093881e-010	2.256963e-005
1.600000000000001e-002	5.250803e-010	2.291463e-005
1.700000000000001e-002	5.412538e-010	2.326486e-005
1.800000000000001e-002	5.579233e-010	2.362040e-005
1.900000000000001e-002	5.751037e-010	2.398132e-005
2.000000000000001e-002	5.928106e-010	2.434770e-005
2.100000000000001e-002	6.110602e-010	2.471963e-005
2.200000000000001e-002	6.298688e-010	2.509719e-005
2.300000000000001e-002	6.492534e-010	2.548045e-005
2.400000000000001e-002	6.692316e-010	2.586951e-005
2.500000000000002e-002	6.898213e-010	2.626445e-005
2.600000000000002e-002	7.110412e-010	2.666536e-005
2.700000000000002e-002	7.329102e-010	2.707231e-005
2.800000000000002e-002	7.554483e-010	2.748542e-005
2.900000000000002e-002	7.786755e-010	2.790476e-005
3.000000000000002e-002	8.026129e-010	2.833042e-005
3.100000000000002e-002	8.272819e-010	2.876251e-005
3.200000000000002e-002	8.527046e-010	2.920111e-005
3.300000000000002e-002	8.789039e-010	2.964631e-005
3.400000000000002e-002	9.059034e-010	3.009823e-005
3.500000000000002e-002	9.337271e-010	3.055695e-005
3.600000000000003e-002	9.624000e-010	3.102257e-005
3.700000000000003e-002	9.919479e-010	3.149520e-005
3.800000000000003e-002	1.022397e-009	3.197494e-005
3.900000000000003e-002	1.053775e-009	3.246189e-005
4.000000000000003e-002	1.086109e-009	3.295616e-005
4.100000000000003e-002	1.119428e-009	3.345786e-005
4.200000000000003e-002	1.153763e-009	3.396708e-005
4.300000000000003e-002	1.189143e-009	3.448395e-005
4.400000000000003e-002	1.225601e-009	3.500858e-005
4.500000000000003e-002	1.263168e-009	3.554107e-005
4.600000000000003e-002	1.301878e-009	3.608154e-005
4.700000000000004e-002	1.341765e-009	3.663012e-005
4.800000000000004e-002	1.382866e-009	3.718690e-005
4.900000000000004e-002	1.425215e-009	3.775202e-005
5.000000000000004e-002	1.468851e-009	3.832560e-005
5.100000000000004e-002	1.513813e-009	3.890775e-005
5.200000000000004e-002	1.560140e-009	3.949861e-005
5.300000000000004e-002	1.607873e-009	4.009829e-005
5.400000000000004e-002	1.657054e-009	4.070693e-005
5.500000000000004e-002	1.707727e-009	4.132465e-005
5.600000000000004e-002	1.759936e-009	4.195159e-005
5.700000000000004e-002	1.813727e-009	4.258787e-005
5.800000000000005e-002	1.869147e-009	4.323364e-005
5.900000000000005e-002	1.926246e-009	4.388902e-005
6.000000000000005e-002	1.985073e-009	4.455416e-005
6.100000000000005e-002	2.045680e-009	4.522920e-005
6.200000000000005e-002	2.108120e-009	4.591427e-005
6.300000000000004e-002	2.172448e-009	4.660953e-005
6.400000000000004e-002	2.238719e-009	4.731511e-005
6.500000000000004e-002	2.306993e-009	4.803117e-005
6.600000000000005e-002	2.377327e-009	4.875784e-005
6.700000000000005e-002	2.449785e-009	4.949530e-005
6.800000000000005e-002	2.524427e-009	5.024368e-005
6.900000000000005e-002	2.601321e-009	5.100314e-005
7.000000000000005e-002	2.680531e-009	5.177385e-005
7.100000000000005e-002	2.762128e-009	5.255595e-005
7.200000000000005e-002	2.846182e-009	5.334962e-005
7.300000000000005e-002	2.932765e-009	5.415501e-005
7.400000000000005e-002	3.021952e-009	5.497229e-005
7.500000000000005e-002	3.113821e-009	5.580162e-005
7.600000000000005e-002	3.208450e-009	5.664318e-005
7.700000000000006e-002	3.305922e-009	5.749715e-005
7.800000000000006e-002	3.406319e-009	5.836368e-005
7.900000000000006e-002	3.509729e-009	5.924296e-005
8.000000000000006e-002	3.616239e-009	6.013517e-005
8.100000000000006e-002	3.725941e-009	6.104049e-005
8.200000000000006e-002	3.838930e-009	6.195910e-005
8.300000000000006e-002	3.955301e-009	6.289118e-005
8.400000000000006e-002	4.075154e-009	6.383693e-005
8.500000000000006e-002	4.198591e-009	6.479654e-005
8.600000000000006e-002	4.325718e-009	6.577019e-005
8.700000000000006e-002	4.456641e-009	6.675808e-005
8.800000000000006e-002	4.591472e-009	6.776040e-005
8.900000000000007e-002	4.730326e-009	6.877737e-005
9.000000000000007e-002	4.873320e-009	6.980917e-005
9.100000000000007e-002	5.020575e-009	7.085602e-005
9.200000000000007e-002	5.172215e-009	7.191811e-005
9.300000000000007e-002	5.328367e-009	7.299566e-005
9.400000000000007e-002	5.489163e-009	7.408889e-005
9.500000000000007e-002	5.654738e-009	7.519800e-005
9.600000000000007e-002	5.825232e-009	7.632321e-005
9.700000000000007e-002	6.000785e-009	7.746474e-005
9.800000000000007e-002	6.181546e-009	7.862281e-005
9.900000000000007e-002	6.367665e-009	7.979765e-005
1.000000000000001e-001	6.559297e-009	8.098948e-005
1.010000000000001e-001	6.756601e-009	8.219854e-005
1.020000000000001e-001	6.959740e-009	8.342506e-005
1.030000000000001e-001	7.168885e-009	8.466927e-005
1.040000000000001e-001	7.384206e-009	8.593140e-005
1.050000000000001e-001	7.605882e-009	8.721171e-005
1.060000000000001e-001	7.834096e-009	8.851043e-005
1.070000000000001e-001	8.069035e-009	8.982781e-005
1.080000000000001e-001	8.310892e-009	9.116410e-005
1.090000000000001e-001	8.559866e-009	9.251954e-005
1.100000000000001e-001	8.816159e-009	9.389441e-005
1.110000000000001e-001	9.079981e-009	9.528894e-005
1.120000000000001e-001	9.351548e-009	9.670340e-005
1.130000000000001e-001	9.631079e-009	9.813806e-005
1.140000000000001e-001	9.918802e-009	9.959318e-005
1.150000000000001e-001	1.021495e-008	1.010690e-004
1.160000000000001e-001	1.051976e-008	1.025659e-004
1.170000000000001e-001	1.083348e-008	1.040840e-004
1.180000000000001e-001	1.115636e-008	1.056237e-004
1.190000000000001e-001	1.148867e-008	1.071852e-004
1.200000000000001e-001	1.183066e-008	1.087688e-004
1.210000000000001e-001	1.218261e-008	1.103749e-004
1.220000000000001e-001	1.254480e-008	1.120036e-004
1.230000000000001e-001	1.291752e-008	1.136553e-004
1.240000000000001e-001	1.330107e-008	1.153303e-004
1.250000000000001e-001	1.369575e-008	1.170288e-004
1.260000000000001e-001	1.410187e-008	1.187513e-004
1.270000000000001e-001	1.451975e-008	1.204979e-004
1.280000000000001e-001	1.494972e-008	1.222691e-004
1.290000000000001e-001	1.539212e-008	1.240650e-004
1.300000000000001e-001	1.584729e-008	1.258860e-004
1.310000000000001e-001	1.631559e-008	1.277325e-004
1.320000000000001e-001	1.679739e-008	1.296047e-004
1.330000000000001e-001	1.729305e-008	1.315031e-004
1.340000000000001e-001	1.780297e-008	1.334278e-004
1.350000000000001e-001	1.832753e-008	1.353792e-004
1.360000000000001e-001	1.886715e-008	1.373577e-004
1.370000000000001e-001	1.942222e-008	1.393636e-004
1.380000000000001e-001	1.999319e-008	1.413973e-004
1.390000000000001e-001	2.058049e-008	1.434590e-004
1.400000000000001e-001	2.118456e-008	1.455492e-004
1.410000000000001e-001	2.180587e-008	1.476681e-004
1.420000000000001e-001	2.244489e-008	1.498162e-004
1.430000000000001e-001	2.310209e-008	1.519937e-004
1.440000000000001e-001	2.377798e-008	1.542011e-004
1.450000000000001e-001	2.447306e-008	1.564387e-004
1.460000000000001e-001	2.518785e-008	1.587068e-004
1.470000000000001e-001	2.592289e-008	1.610059e-004
1.480000000000001e-001	2.667873e-008	1.633363e-004
1.490000000000001e-001	2.745593e-008	1.656983e-004
1.500000000000001e-001	2.825506e-008	1.680924e-004
1.510000000000001e-001	2.907671e-008	1.705189e-004
1.520000000000001e-001	2.992148e-008	1.729783e-004
1.530000000000001e-001	3.079001e-008	1.754708e-004
1.540000000000001e-001	3.168292e-008	1.779970e-004
1.550000000000001e-001	3.260086e-008	1.805571e-004
1.560000000000001e-001	3.354451e-008	1.831516e-004
1.570000000000001e-001	3.451453e-008	1.857809e-004
1.580000000000001e-001	3.551164e-008	1.884453e-004
1.590000000000001e-001	3.653655e-008	1.911454e-004
1.600000000000001e-001	3.759000e-008	1.938814e-004
1.610000000000001e-001	3.867274e-008	1.966539e-004
1.620000000000001e-001	3.978554e-008	1.994631e-004
1.630000000000001e-001	4.092918e-008	2.023096e-004
1.640000000000001e-001	4.210449e-008	2.051938e-004
1.650000000000001e-001	4.331228e-008	2.081160e-004
1.660000000000001e-001	4.455341e-008	2.110768e-004
1.670000000000001e-001	4.582874e-008	2.140765e-004
1.680000000000001e-001	4.713916e-008	2.171155e-004
1.690000000000001e-001	4.848558e-008	2.201944e-004
1.700000000000001e-001	4.986894e-008	2.233135e-004
1.710000000000001e-001	5.129018e-008	2.264734e-004
1.720000000000001e-001	5.275029e-008	2.296743e-004
1.730000000000001e-001	5.425025e-008	2.329168e-004
1.740000000000001e-001	5.579111e-008	2.362014e-004
1.750000000000001e-001	5.737389e-008	2.395285e-004
1.760000000000001e-001	5.899967e-008	2.428985e-004
1.770000000000001e-001	6.066954e-008	2.463119e-004
1.780000000000001e-001	6.238464e-008	2.497692e-004
1.790000000000001e-001	6.414609e-008	2.532708e-004
1.800000000000001e-001	6.595508e-008	2.568172e-004
1.810000000000001e-001	6.781280e-008	2.604089e-004
1.820000000000001e-001	6.972048e-008	2.640464e-004
1.830000000000001e-001	7.167937e-008	2.677300e-004
1.840000000000001e-001	7.369076e-008	2.714604e-004
1.850000000000001e-001	7.575595e-008	2.752380e-004
1.860000000000001e-001	7.787629e-008	2.790632e-004
1.870000000000001e-001	8.005315e-008	2.829367e-004
1.880000000000001e-001	8.228793e-008	2.868587e-004
1.890000000000001e-001	8.458205e-008	2.908299e-004
1.900000000000001e-001	8.693699e-008	2.948508e-004
1.910000000000001e-001	8.935425e-008	2.989218e-004
1.920000000000001e-001	9.183535e-008	3.030435e-004
1.930000000000001e-001	9.438185e-008	3.072163e-004
1.940000000000001e-001	9.699534e-008	3.114408e-004
1.950000000000002e-001	9.967748e-008	3.157174e-004
1.960000000000002e-001	1.024299e-007	3.200467e-004
1.970000000000002e-001	1.052543e-007	3.244292e-004
1.980000000000002e-001	1.081525e-007	3.288655e-004
1.990000000000002e-001	1.111262e-007	3.333559e-004
2.000000000000002e-001	1.141772e-007	3.379012e-004
2.010000000000002e-001	1.173074e-007	3.425017e-004
2.020000000000002e-001	1.205187e-007	3.471580e-004
2.030000000000002e-001	1.238130e-007	3.518707e-004
2.040000000000002e-001	1.271922e-007	3.566402e-004
2.050000000000002e-001	1.306585e-007	3.614671e-004
2.060000000000002e-001	1.342138e-007	3.663520e-004
2.070000000000002e-001	1.378603e-007	3.712954e-004
2.080000000000002e-001	1.416001e-007	3.762978e-004
2.090000000000002e-001	1.454353e-007	3.813598e-004
2.100000000000002e-001	1.493683e-007	3.864819e-004
2.110000000000002e-001	1.534012e-007	3.916647e-004
2.120000000000002e-001	1.575365e-007	3.969087e-004
2.130000000000002e-001	1.617765e-007	4.022144e-004
2.140000000000002e-001	1.661235e-007	4.075825e-004
2.150000000000002e-001	1.705802e-007	4.130135e-004
2.160000000000002e-001	1.751489e-007	4.185080e-004
2.170000000000002e-001	1.798324e-007	4.240665e-004
2.180000000000002e-001	1.846331e-007	4.296895e-004
2.190000000000002e-001	1.895537e-007	4.353777e-004
2.200000000000002e-001	1.945971e-007	4.411316e-004
2.210000000000002e-001	1.997659e-007	4.469518e-004
2.220000000000002e-001	2.050631e-007	4.528389e-004
2.230000000000002e-001	2.104915e-007	4.587935e-004
2.240000000000002e-001	2.160539e-007	4.648160e-004
2.250000000000002e-001	2.217536e-007	4.709072e-004
2.260000000000002e-001	2.275935e-007	4.770676e-004
2.270000000000002e-001	2.335767e-007	4.832977e-004
2.280000000000002e-001	2.397065e-007	4.895983e-004
2.290000000000002e-001	2.459860e-007	4.959698e-004
2.300000000000002e-001	2.524186e-007	5.024128e-004
2.310000000000002e-001	2.590077e-007	5.089280e-004
2.320000000000002e-001	2.657567e-007	5.155159e-004
2.330000000000002e-001	2.726690e-007	5.221772e-004
2.340000000000002e-001	2.797484e-007	5.289124e-004
2.350000000000002e-001	2.869983e-007	5.357222e-004
2.360000000000002e-001	2.944226e-007	5.426072e-004
2.370000000000002e-001	3.020249e-007	5.495679e-004
2.380000000000002e-001	3.098092e-007	5.566051e-004
2.390000000000002e-001	3.177793e-007	5.637192e-004
2.400000000000002e-001	3.259393e-007	5.709109e-004
2.410000000000002e-001	3.342931e-007	5.781809e-004
2.420000000000002e-001	3.428451e-007	5.855297e-004
2.430000000000002e-001	3.515992e-007	5.929580e-004
2.440000000000002e-001	3.605600e-007	6.004665e-004
2.450000000000002e-001	3.697316e-007	6.080556e-004
2.460000000000002e-001	3.791187e-007	6.157261e-004
2.470000000000002e-001	3.887256e-007	6.234786e-004
2.480000000000002e-001	3.985571e-007	6.313138e-004
2.490000000000002e-001	4.086179e-007	6.392322e-004
2.500000000000002e-001	4.189126e-007	6.472346e-004
2.510000000000002e-001	4.294462e-007	6.553215e-004
2.520000000000002e-001	4.402237e-007	6.634936e-004
2.530000000000002e-001	4.512501e-007	6.717515e-004
2.540000000000002e-001	4.625305e-007	6.800959e-004
2.550000000000002e-001	4.740702e-007	6.885275e-004
2.560000000000002e-001	4.858744e-007	6.970469e-004
2.570000000000002e-001	4.979486e-007	7.056548e-004
2.580000000000002e-001	5.102984e-007	7.143517e-004
2.590000000000002e-001	5.229293e-007	7.231385e-004
2.600000000000002e-001	5.358469e-007	7.320157e-004
2.610000000000002e-001	5.490572e-007	7.409840e-004
2.620000000000002e-001	5.625660e-007	7.500440e-004
2.630000000000002e-001	5.763794e-007	7.591965e-004
2.640000000000002e-001	5.905034e-007	7.684422e-004
2.650000000000002e-001	6.049442e-007	7.777816e-004
2.660000000000002e-001	6.197082e-007	7.872155e-004
2.670000000000002e-001	6.348018e-007	7.967445e-004
2.680000000000002e-001	6.502316e-007	8.063694e-004
2.690000000000002e-001	6.660042e-007	8.160908e-004
2.700000000000002e-001	6.821263e-007	8.259094e-004
2.710000000000002e-001	6.986048e-007	8.358258e-004
2.720000000000002e-001	7.154467e-007	8.458408e-004
2.730000000000002e-001	7.326591e-007	8.559551e-004
2.740000000000002e-001	7.502493e-007	8.661693e-004
2.750000000000002e-001	7.682245e-007	8.764842e-004
2.760000000000002e-001	7.865924e-007	8.869004e-004
2.770000000000002e-001	8.053603e-007	8.974187e-004
2.780000000000002e-001	8.245360e-007	9.080397e-004
2.790000000000002e-001	8.441274e-007	9.187641e-004
2.800000000000002e-001	8.641424e-007	9.295926e-004
2.810000000000002e-001	8.845892e-007	9.405260e-004
2.820000000000002e-001	9.054758e-007	9.515649e-004
2.830000000000002e-001	9.268106e-007	9.627100e-004
2.840000000000002e-001	9.486022e-007	9.739621e-004
2.850000000000002e-001	9.708592e-007	9.853219e-004
2.860000000000002e-001	9.935902e-007	9.967900e-004
2.870000000000002e-001	1.016804e-006	1.008367e-003
2.880000000000002e-001	1.040510e-006	1.020054e-003
2.890000000000002e-001	1.064717e-006	1.031851e-003
2.900000000000002e-001	1.089435e-006	1.043760e-003
2.910000000000002e-001	1.114672e-006	1.055780e-003
2.920000000000002e-001	1.140439e-006	1.067913e-003
2.930000000000002e-001	1.166745e-006	1.080160e-003
2.940000000000002e-001	1.193600e-006	1.092520e-003
2.950000000000002e-001	1.221014e-006	1.104995e-003
2.960000000000002e-001	1.248997e-006	1.117585e-003
2.970000000000002e-001	1.277560e-006	1.130292e-003
2.980000000000002e-001	1.306712e-006	1.143115e-003
2.990000000000002e-001	1.336465e-006	1.156056e-003
3.000000000000002e-001	1.366829e-006	1.169115e-003
3.010000000000002e-001	1.397816e-006	1.182293e-003
3.020000000000002e-001	1.429435e-006	1.195590e-003
3.030000000000002e-001	1.461699e-006	1.209008e-003
3.040000000000002e-001	1.494619e-006	1.222546e-003
3.050000000000002e-001	1.528206e-006	1.236206e-003
3.060000000000002e-001	1.562472e-006	1.249989e-003
3.070000000000002e-001	1.597429e-006	1.263894e-003
3.080000000000002e-001	1.633088e-006	1.277923e-003
3.090000000000002e-001	1.669462e-006	1.292077e-003
3.100000000000002e-001	1.706564e-006	1.306355e-003
3.110000000000002e-001	1.744405e-006	1.320759e-003
3.120000000000002e-001	1.782998e-006	1.335289e-003
3.130000000000002e-001	1.822356e-006	1.349947e-003
3.140000000000002e-001	1.862491e-006	1.364731e-003
3.150000000000002e-001	1.903418e-006	1.379644e-003
3.160000000000002e-001	1.945149e-006	1.394686e-003
3.170000000000002e-001	1.987697e-006	1.409857e-003
3.180000000000002e-001	2.031076e-006	1.425158e-003
3.190000000000002e-001	2.075300e-006	1.440590e-003
3.200000000000002e-001	2.120382e-006	1.456153e-003
3.210000000000002e-001	2.166337e-006	1.471848e-003
3.220000000000002e-001	2.213179e-006	1.487676e-003
3.230000000000002e-001	2.260922e-006	1.503636e-003
3.240000000000002e-001	2.309579e-006	1.519730e-003
3.250000000000002e-001	2.359167e-006	1.535958e-003
3.260000000000002e-001	2.409700e-006	1.552321e-003
3.270000000000002e-001	2.461193e-006	1.568819e-003
3.280000000000002e-001	2.513660e-006	1.585453e-003
3.290000000000002e-001	2.567117e-006	1.602223e-003
3.300000000000002e-001	2.621580e-006	1.619129e-003
3.310000000000002e-001	2.677063e-006	1.636173e-003
3.320000000000002e-001	2.733583e-006	1.653355e-003
3.330000000000002e-001	2.791154e-006	1.670675e-003
3.340000000000002e-001	2.849794e-006	1.688133e-003
3.350000000000002e-001	2.909518e-006	1.705731e-003
3.360000000000002e-001	2.970342e-006	1.723468e-003
3.370000000000002e-001	3.032283e-006	1.741345e-003
3.380000000000002e-001	3.095357e-006	1.759363e-003
3.390000000000003e-001	3.159580e-006	1.777521e-003
3.400000000000003e-001	3.224970e-006	1.795820e-003
3.410000000000003e-001	3.291542e-006	1.814261e-003
3.420000000000003e-001	3.359314e-006	1.832843e-003
3.430000000000003e-001	3.428304e-006	1.851568e-003
3.440000000000003e-001	3.498528e-006	1.870435e-003
3.450000000000003e-001	3.570002e-006	1.889445e-003
3.460000000000003e-001	3.642746e-006	1.908598e-003
3.470000000000003e-001	3.716776e-006	1.927894e-003
3.480000000000003e-001	3.792110e-006	1.947334e-003
3.490000000000003e-001	3.868765e-006	1.966918e-003
3.500000000000003e-001	3.946760e-006	1.986645e-003
3.510000000000003e-001	4.026111e-006	2.006517e-003
3.520000000000003e-001	4.106837e-006	2.026533e-003
3.530000000000003e-001	4.188956e-006	2.046694e-003
3.540000000000003e-001	4.272486e-006	2.066999e-003
3.550000000000003e-001	4.357446e-006	2.087450e-003
3.560000000000003e-001	4.443852e-006	2.108045e-003
3.570000000000003e-001	4.531724e-006	2.128785e-003
3.580000000000003e-001	4.621080e-006	2.149670e-003
3.590000000000003e-001	4.711938e-006	2.170700e-003
3.600000000000003e-001	4.804318e-006	2.191875e-003
3.610000000000003e-001	4.898236e-006	2.213196e-003
3.620000000000003e-001	4.993712e-006	2.234661e-003
3.630000000000003e-001	5.090764e-006	2.256272e-003
3.640000000000003e-001	5.189411e-006	2.278028e-003
3.650000000000003e-001	5.289671e-006	2.299929e-003
3.660000000000003e-001	5.391564e-006	2.321974e-003
3.670000000000003e-001	5.495107e-006	2.344164e-003
3.680000000000003e-001	5.600319e-006	2.366499e-003
3.690000000000003e-001	5.707218e-006	2.388979e-003
3.700000000000003e-001	5.815825e-006	2.411602e-003
3.710000000000003e-001	5.926157e-006	2.434370e-003
3.720000000000003e-001	6.038231e-006	2.457281e-003
3.730000000000003e-001	6.152069e-006	2.480336e-003
3.740000000000003e-001	6.267687e-006	2.503535e-003
3.750000000000003e-001	6.385104e-006	2.526876e-003
3.760000000000003e-001	6.504339e-006	2.550360e-003
3.770000000000003e-001	6.625410e-006	2.573987e-003
3.780000000000003e-001	6.748335e-006	2.597756e-003
3.790000000000003e-001	6.873133e-006	2.621666e-003
3.800000000000003e-001	6.999822e-006	2.645718e-003
3.810000000000003e-001	7.128420e-006	2.669910e-003
3.820000000000003e-001	7.258946e-006	2.694243e-003
3.830000000000003e-001	7.391417e-006	2.718716e-003
3.840000000000003e-001	7.525851e-006	2.743328e-003
3.850000000000003e-001	7.662265e-006	2.768080e-003
3.860000000000003e-001	7.800680e-006	2.792970e-003
3.870000000000003e-001	7.941109e-006	2.817997e-003
3.880000000000003e-001	8.083573e-006	2.843163e-003
3.890000000000003e-001	8.228089e-006	2.868464e-003
